
**** 05/27/20 00:44:33 ******* PSpice Lite (March 2016) ******* ID# 10813 ****

 ** Profile: "SCHEMATIC1-orcad11week6"  [ C:\Users\OHSEHOON\Desktop\pispice\orcad11week6-PSpiceFiles\SCHEMATIC1\orcad11week6.sim ] 


 ****     CIRCUIT DESCRIPTION


******************************************************************************




** Creating circuit file "orcad11week6.cir" 
** WARNING: THIS AUTOMATICALLY GENERATED FILE MAY BE OVERWRITTEN BY SUBSEQUENT SIMULATIONS

*Libraries: 
* Profile Libraries :
* Local Libraries :
* From [PSPICE NETLIST] section of C:\Users\OHSEHOON\AppData\Roaming\SPB_Data\cdssetup\OrCAD_PSpice\17.2.0\PSpice.ini file:
.lib "nomd.lib" 

*Analysis directives: 
.TRAN  0 10m 0 
.OPTIONS ADVCONV
.PROBE64 V(alias(*)) I(alias(*)) W(alias(*)) D(alias(*)) NOISE(alias(*)) 
.INC "..\SCHEMATIC1.net" 



**** INCLUDING SCHEMATIC1.net ****
* source ORCAD11WEEK6
Q_Q1         N01791 N01671 N01648 Q2N2222
V_V2         N01656 0 12V
R_R1         N01791 N01656  3.3k TC=0,0 
R_R2         N01671 N01656  68k TC=0,0 
R_R3         0 N01671  24k TC=0,0 
R_R4         0 N01648  2k TC=0,0 

**** RESUMING orcad11week6.cir ****
.END

**** 05/27/20 00:44:33 ******* PSpice Lite (March 2016) ******* ID# 10813 ****

 ** Profile: "SCHEMATIC1-orcad11week6"  [ C:\Users\OHSEHOON\Desktop\pispice\orcad11week6-PSpiceFiles\SCHEMATIC1\orcad11week6.sim ] 


 ****     BJT MODEL PARAMETERS


******************************************************************************




               Q2N2222         
               NPN             
       LEVEL    1            
          IS   14.340000E-15 
          BF  255.9          
          NF    1            
         VAF   74.03         
         IKF     .2847       
         ISE   14.340000E-15 
          NE    1.307        
          BR    6.092        
          NR    1            
         ISS    0            
          RB   10            
          RE    0            
          RC    1            
         CJE   22.010000E-12 
         VJE     .75         
         MJE     .377        
         CJC    7.306000E-12 
         VJC     .75         
         MJC     .3416       
        XCJC    1            
         CJS    0            
         VJS     .75         
          TF  411.100000E-12 
         XTF    3            
         VTF    1.7          
         ITF     .6          
          TR   46.910000E-09 
         XTB    1.5          
          KF    0            
          AF    1            
          CN    2.42         
           D     .87         


**** 05/27/20 00:44:33 ******* PSpice Lite (March 2016) ******* ID# 10813 ****

 ** Profile: "SCHEMATIC1-orcad11week6"  [ C:\Users\OHSEHOON\Desktop\pispice\orcad11week6-PSpiceFiles\SCHEMATIC1\orcad11week6.sim ] 


 ****     INITIAL TRANSIENT SOLUTION       TEMPERATURE =   27.000 DEG C


******************************************************************************



 NODE   VOLTAGE     NODE   VOLTAGE     NODE   VOLTAGE     NODE   VOLTAGE


(N01648)    2.3521 (N01656)   12.0000 (N01671)    3.0004 (N01791)    8.1432 




    VOLTAGE SOURCE CURRENTS
    NAME         CURRENT

    V_V2        -1.301E-03

    TOTAL POWER DISSIPATION   1.56E-02  WATTS



          JOB CONCLUDED

**** 05/27/20 00:44:33 ******* PSpice Lite (March 2016) ******* ID# 10813 ****

 ** Profile: "SCHEMATIC1-orcad11week6"  [ C:\Users\OHSEHOON\Desktop\pispice\orcad11week6-PSpiceFiles\SCHEMATIC1\orcad11week6.sim ] 


 ****     JOB STATISTICS SUMMARY


******************************************************************************



  Total job time (using Solver 1)   =         .06
