
**** 06/03/20 19:13:14 ******* PSpice Lite (March 2016) ******* ID# 10813 ****

 ** Profile: "SCHEMATIC1-orcad12week5"  [ C:\Users\OHSEHOON\Desktop\pispice\orcad12week5-PSpiceFiles\SCHEMATIC1\orcad12week5.sim ] 


 ****     CIRCUIT DESCRIPTION


******************************************************************************




** Creating circuit file "orcad12week5.cir" 
** WARNING: THIS AUTOMATICALLY GENERATED FILE MAY BE OVERWRITTEN BY SUBSEQUENT SIMULATIONS

*Libraries: 
* Profile Libraries :
* Local Libraries :
* From [PSPICE NETLIST] section of C:\Users\OHSEHOON\AppData\Roaming\SPB_Data\cdssetup\OrCAD_PSpice\17.2.0\PSpice.ini file:
.lib "nomd.lib" 

*Analysis directives: 
.TRAN  0 3m 0 
.OPTIONS ADVCONV
.PROBE64 V(alias(*)) I(alias(*)) W(alias(*)) D(alias(*)) NOISE(alias(*)) 
.INC "..\SCHEMATIC1.net" 



**** INCLUDING SCHEMATIC1.net ****
* source ORCAD12WEEK5
X_U1A         N00303 N01444 + - N00454 LM324
V_V1         + 0 15
V_V2         - 0 -15
R_R1         0 N00454  3.9k TC=0,0 
R_R2         0 N01444  1k TC=0,0 
V_V3         N00303 0  
+SIN 0 0.5 1k 0 0 0
R_R3         N01444 N00454  2k TC=0,0 

**** RESUMING orcad12week5.cir ****
.END

**** 06/03/20 19:13:14 ******* PSpice Lite (March 2016) ******* ID# 10813 ****

 ** Profile: "SCHEMATIC1-orcad12week5"  [ C:\Users\OHSEHOON\Desktop\pispice\orcad12week5-PSpiceFiles\SCHEMATIC1\orcad12week5.sim ] 


 ****     Diode MODEL PARAMETERS


******************************************************************************




               X_U1A.dx        X_U1A.dy        
          IS  800.000000E-18  800.000000E-18 
          RS    1               1.000000E-03 
         CJO                   10.000000E-12 


**** 06/03/20 19:13:14 ******* PSpice Lite (March 2016) ******* ID# 10813 ****

 ** Profile: "SCHEMATIC1-orcad12week5"  [ C:\Users\OHSEHOON\Desktop\pispice\orcad12week5-PSpiceFiles\SCHEMATIC1\orcad12week5.sim ] 


 ****     BJT MODEL PARAMETERS


******************************************************************************




               X_U1A.qx        
               PNP             
       LEVEL    1            
          IS  800.000000E-18 
          BF  166.7          
          NF    1            
          BR    1            
          NR    1            
         ISS    0            
          RE    0            
          RC    0            
         CJE    0            
         VJE     .75         
         CJC    0            
         VJC     .75         
         MJC     .33         
        XCJC    1            
         CJS    0            
         VJS     .75         
          KF    0            
          AF    1            
          CN    2.2          
           D     .52         


**** 06/03/20 19:13:14 ******* PSpice Lite (March 2016) ******* ID# 10813 ****

 ** Profile: "SCHEMATIC1-orcad12week5"  [ C:\Users\OHSEHOON\Desktop\pispice\orcad12week5-PSpiceFiles\SCHEMATIC1\orcad12week5.sim ] 


 ****     Current Controlled Switch MODEL PARAMETERS


******************************************************************************




               X_U1A.sw2       X_U1A.sw1       X_U1A.sw3       X_U1A.sw4       
         RON    1               1               1               1            
        ROFF   10.000000E+06   10.000000E+06   10.000000E+06   10.000000E+06 
         ION    0              -1.000000E-06   -1.000000E-06    0            
        IOFF   -1.000000E-06    0               0              -1.000000E-06 


**** 06/03/20 19:13:14 ******* PSpice Lite (March 2016) ******* ID# 10813 ****

 ** Profile: "SCHEMATIC1-orcad12week5"  [ C:\Users\OHSEHOON\Desktop\pispice\orcad12week5-PSpiceFiles\SCHEMATIC1\orcad12week5.sim ] 


 ****     INITIAL TRANSIENT SOLUTION       TEMPERATURE =   27.000 DEG C


******************************************************************************



 NODE   VOLTAGE     NODE   VOLTAGE     NODE   VOLTAGE     NODE   VOLTAGE


(    -)  -15.0000  (    0)    0.0000  (N00303)    0.0000 (N00454)-667.4E-06     

(N01444)-192.5E-06 (X_U1A.6) 131.4E-09                   (X_U1A.7)-687.8E-06    

(X_U1A.8)-687.8E-06                   (X_U1A.9)    0.0000                       

(X_U1A.a)   14.8130                   (X_U1A.b)    -.1869                       

(X_U1A.10)     .6076                  (X_U1A.11)  -14.9600                      

(X_U1A.12)  -14.9600                  (X_U1A.13)     .5937                      

(X_U1A.14)     .5937                  (X_U1A.53)   13.5000                      

(X_U1A.54)  -14.1780                  (X_U1A.90)-408.6E-06                      

(X_U1A.91)   40.0000                  (X_U1A.92)  -40.0000                      

(X_U1A.99)    0.0000                  




    VOLTAGE SOURCE CURRENTS
    NAME         CURRENT

    V_V1        -3.844E-03
    V_V2         3.845E-03
    V_V3         4.473E-08
    X_U1A.vb     1.314E-12
    X_U1A.vc     1.350E-11
    X_U1A.ve     1.612E-11
    X_U1A.vlim  -4.086E-07
    X_U1A.vlp   -4.000E-11
    X_U1A.vln   -4.000E-11

    TOTAL POWER DISSIPATION   1.15E-01  WATTS



          JOB CONCLUDED

**** 06/03/20 19:13:14 ******* PSpice Lite (March 2016) ******* ID# 10813 ****

 ** Profile: "SCHEMATIC1-orcad12week5"  [ C:\Users\OHSEHOON\Desktop\pispice\orcad12week5-PSpiceFiles\SCHEMATIC1\orcad12week5.sim ] 


 ****     JOB STATISTICS SUMMARY


******************************************************************************



  Total job time (using Solver 1)   =         .16
