
**** 04/01/20 15:48:06 ******* PSpice Lite (March 2016) ******* ID# 10813 ****

 ** Profile: "SCHEMATIC1-orcad2"  [ C:\Users\OHSEHOON\Desktop\pispice\orcad2-PSpiceFiles\SCHEMATIC1\orcad2.sim ] 


 ****     CIRCUIT DESCRIPTION


******************************************************************************




** Creating circuit file "orcad2.cir" 
** WARNING: THIS AUTOMATICALLY GENERATED FILE MAY BE OVERWRITTEN BY SUBSEQUENT SIMULATIONS

*Libraries: 
* Profile Libraries :
* Local Libraries :
* From [PSPICE NETLIST] section of C:\Users\OHSEHOON\AppData\Roaming\SPB_Data\cdssetup\OrCAD_PSpice\17.2.0\PSpice.ini file:
.lib "nomd.lib" 

*Analysis directives: 
.TRAN  0 10us 0 
.OPTIONS ADVCONV
.PROBE64 V(alias(*)) I(alias(*)) W(alias(*)) D(alias(*)) NOISE(alias(*)) 
.INC "..\SCHEMATIC1.net" 



**** INCLUDING SCHEMATIC1.net ****
* source ORCAD2
X_U1A         N00424 N00453 $G_DPWR $G_DGND 7414 PARAMS:
+ IO_LEVEL=0 MNTYMXDLY=0
X_U1B         N00453 N00469 $G_DPWR $G_DGND 7414 PARAMS:
+ IO_LEVEL=0 MNTYMXDLY=0
X_U2A         N00469 RESET_BAR $D_HI $D_HI OUTPUT OUTPUT_BAR $G_DPWR $G_DGND
+  74107 PARAMS:
+ IO_LEVEL=0 MNTYMXDLY=0
X_U3A         RESET N00424 $G_DPWR $G_DGND 7405 PARAMS:
+ IO_LEVEL=0 MNTYMXDLY=0
X_U4A         RESET RESET_BAR $G_DPWR $G_DGND 7404 PARAMS:
+ IO_LEVEL=0 MNTYMXDLY=0
R_R1         N00453 N00424  750 TC=0,0 
C_C1         N00424 N00469  400pF  TC=0,0 
U_DSTM1         STIM(1,1)
+ $G_DPWR $G_DGND
+ RESET 
+ IO_STM
+ IO_LEVEL=0
+  0s 1  
+ 100ns 0  

**** RESUMING orcad2.cir ****
.END


**** Generated AtoD and DtoA Interfaces ****

*
* Analog/Digital interface for node N00453
*
* Moving X_U1B.U1:IN1 from analog node N00453 to new digital node N00453$AtoD
X$N00453_AtoD1
+ N00453
+ N00453$AtoD
+ $G_DPWR
+ $G_DGND
+ AtoD_STD_ST
+       PARAMS: CAPACITANCE=   0     
* Moving X_U1A.U1:OUT1 from analog node N00453 to new digital node N00453$DtoA
X$N00453_DtoA1
+ N00453$DtoA
+ N00453
+ $G_DPWR
+ $G_DGND
+ DtoA_STD
+       PARAMS: DRVH=  96.4   DRVL= 104    CAPACITANCE=   0     
*
* Analog/Digital interface for node N00424
*
* Moving X_U1A.U1:IN1 from analog node N00424 to new digital node N00424$AtoD
X$N00424_AtoD1
+ N00424
+ N00424$AtoD
+ $G_DPWR
+ $G_DGND
+ AtoD_STD_ST
+       PARAMS: CAPACITANCE=   0     
* Moving X_U3A.U1:OUT1 from analog node N00424 to new digital node N00424$DtoA
X$N00424_DtoA1
+ N00424$DtoA
+ N00424
+ $G_DPWR
+ $G_DGND
+ DtoA_STD_OC
+       PARAMS: DRVH=   1.0000E+06 DRVL= 104    CAPACITANCE=   0     
*
* Analog/Digital interface for node N00469
*
* Moving X_U2A.U2BUF:IN1 from analog node N00469 to new digital node N00469$AtoD
X$N00469_AtoD1
+ N00469
+ N00469$AtoD
+ $G_DPWR
+ $G_DGND
+ AtoD_STD
+       PARAMS: CAPACITANCE=   0     
* Moving X_U1B.U1:OUT1 from analog node N00469 to new digital node N00469$DtoA
X$N00469_DtoA1
+ N00469$DtoA
+ N00469
+ $G_DPWR
+ $G_DGND
+ DtoA_STD
+       PARAMS: DRVH=  96.4   DRVL= 104    CAPACITANCE=   0     
*
* Analog/Digital interface power supply subcircuits
*
X$DIGIFPWR 0 DIGIFPWR


**** 04/01/20 15:48:06 ******* PSpice Lite (March 2016) ******* ID# 10813 ****

 ** Profile: "SCHEMATIC1-orcad2"  [ C:\Users\OHSEHOON\Desktop\pispice\orcad2-PSpiceFiles\SCHEMATIC1\orcad2.sim ] 


 ****     Diode MODEL PARAMETERS


******************************************************************************




               D74CLMP         D74             
          IS    1.000000E-15  100.000000E-18 
          RS    2              25            
         CJO    2.000000E-12    2.000000E-12 


**** 04/01/20 15:48:06 ******* PSpice Lite (March 2016) ******* ID# 10813 ****

 ** Profile: "SCHEMATIC1-orcad2"  [ C:\Users\OHSEHOON\Desktop\pispice\orcad2-PSpiceFiles\SCHEMATIC1\orcad2.sim ] 


 ****     BJT MODEL PARAMETERS


******************************************************************************




               Q74             
               NPN             
       LEVEL    1            
          IS  100.000000E-18 
          BF   49            
          NF    1            
         ISE  100.000000E-18 
          BR     .03         
          NR    1            
         ISC  400.000000E-18 
         ISS    0            
          RB   50            
          RE    0            
          RC   20            
         CJE    1.000000E-12 
         VJE     .9          
         MJE     .5          
         CJC  500.000000E-15 
         VJC     .8          
         MJC     .33         
        XCJC    1            
         CJS    3.000000E-12 
         VJS     .7          
         MJS     .33         
          TF  200.000000E-12 
          TR   10.000000E-09 
          KF    0            
          AF    1            
          CN    2.42         
           D     .87         


**** 04/01/20 15:48:06 ******* PSpice Lite (March 2016) ******* ID# 10813 ****

 ** Profile: "SCHEMATIC1-orcad2"  [ C:\Users\OHSEHOON\Desktop\pispice\orcad2-PSpiceFiles\SCHEMATIC1\orcad2.sim ] 


 ****     Digital Input MODEL PARAMETERS


******************************************************************************




               DIN74           DIN74_OC        
      S0NAME 0               0               
       S0TSW    3.500000E-09    3.500000E-09 
       S0RLO    7.13            7.13         
       S0RHI  389             389            
      S1NAME 1               1               
       S1TSW    5.500000E-09    5.500000E-09 
       S1RLO  467             200.000000E+03 
       S1RHI  200             200.000000E+03 
      S2NAME X               X               
       S2TSW    3.500000E-09    3.500000E-09 
       S2RLO   42.9            42.9          
       S2RHI  116             116            
      S3NAME R               R               
       S3TSW    3.500000E-09    3.500000E-09 
       S3RLO   42.9            42.9          
       S3RHI  116             116            
      S4NAME F               F               
       S4TSW    3.500000E-09    3.500000E-09 
       S4RLO   42.9            42.9          
       S4RHI  116             116            
      S5NAME Z               Z               
       S5TSW    3.500000E-09    5.500000E-09 
       S5RLO  200.000000E+03  200.000000E+03 
       S5RHI  200.000000E+03  200.000000E+03 


**** 04/01/20 15:48:06 ******* PSpice Lite (March 2016) ******* ID# 10813 ****

 ** Profile: "SCHEMATIC1-orcad2"  [ C:\Users\OHSEHOON\Desktop\pispice\orcad2-PSpiceFiles\SCHEMATIC1\orcad2.sim ] 


 ****     Digital Output MODEL PARAMETERS


******************************************************************************




               DO74_ST         DO74            
    TIMESTEP  100.000000E-12  100.000000E-12 
      S0NAME 0               X               
       S0VHI    1.7             2            
       S0VLO   -1.5              .8          
      S1NAME 1               0               
       S1VHI    7                .8          
       S1VLO     .9            -1.5          
      S2NAME                 R               
       S2VHI                    1.4          
       S2VLO                     .8          
      S3NAME                 R               
       S3VHI                    2            
       S3VLO                    1.3          
      S4NAME                 X               
       S4VHI                    2            
       S4VLO                     .8          
      S5NAME                 1               
       S5VHI                    7            
       S5VLO                    2            
      S6NAME                 F               
       S6VHI                    2            
       S6VLO                    1.3          
      S7NAME                 F               
       S7VHI                    1.4          
       S7VLO                     .8          


**** 04/01/20 15:48:06 ******* PSpice Lite (March 2016) ******* ID# 10813 ****

 ** Profile: "SCHEMATIC1-orcad2"  [ C:\Users\OHSEHOON\Desktop\pispice\orcad2-PSpiceFiles\SCHEMATIC1\orcad2.sim ] 


 ****     Digital Gate MODEL PARAMETERS


******************************************************************************




               D_14            D_107_4         D_107_3         D_05            
      TPLHMN    6.000000E-09    6.000000E-09    2.400000E-09   16.000000E-09 
      TPLHTY   15.000000E-09    6.000000E-09    6.000000E-09   40.000000E-09 
      TPLHMX   22.000000E-09    6.000000E-09    6.000000E-09   55.000000E-09 
      TPHLMN    6.000000E-09    0               2.400000E-09    3.200000E-09 
      TPHLTY   15.000000E-09    0               6.000000E-09    8.000000E-09 
      TPHLMX   22.000000E-09    0               6.000000E-09   15.000000E-09 


               D_04            D0_GATE         
      TPLHMN    4.800000E-09    0            
      TPLHTY   12.000000E-09    0            
      TPLHMX   22.000000E-09    0            
      TPHLMN    3.200000E-09    0            
      TPHLTY    8.000000E-09    0            
      TPHLMX   15.000000E-09    0            


**** 04/01/20 15:48:06 ******* PSpice Lite (March 2016) ******* ID# 10813 ****

 ** Profile: "SCHEMATIC1-orcad2"  [ C:\Users\OHSEHOON\Desktop\pispice\orcad2-PSpiceFiles\SCHEMATIC1\orcad2.sim ] 


 ****     Digital Edge Triggered FF MODEL PARAMETERS


******************************************************************************




               D_107_1         D_107_2         
  TPCLKQLHMN    4.000000E-09    4.000000E-09 
  TPCLKQLHTY   10.000000E-09   10.000000E-09 
  TPCLKQLHMX   16.000000E-09   19.000000E-09 
  TPCLKQHLMN    7.200000E-09    7.600000E-09 
  TPCLKQHLTY   18.000000E-09   19.000000E-09 
  TPCLKQHLMX   28.000000E-09   34.000000E-09 
   TPPCQLHMN    4.000000E-09    4.000000E-09 
   TPPCQLHTY   10.000000E-09   10.000000E-09 
   TPPCQLHMX   15.000000E-09   19.000000E-09 
   TPPCQHLMN    4.000000E-09    7.600000E-09 
   TPPCQHLTY   10.000000E-09   19.000000E-09 
   TPPCQHLMX   15.000000E-09   34.000000E-09 
    TWCLKLMN    0               0            
    TWCLKLTY   20.000000E-09   20.000000E-09 
    TWCLKLMX   20.000000E-09   20.000000E-09 
    TWCLKHMN    0               0            
    TWCLKHTY   20.000000E-09   20.000000E-09 
    TWCLKHMX   20.000000E-09   20.000000E-09 
     TWPCLMN    0               0            
     TWPCLTY   20.000000E-09   20.000000E-09 
     TWPCLMX   20.000000E-09   20.000000E-09 
   TSUDCLKMN    0               0            
   TSUDCLKTY   20.000000E-09   20.000000E-09 
   TSUDCLKMX   10.000000E-09   10.000000E-09 
 TSUPCCLKHMN    0               0            
 TSUPCCLKHTY    0               0            
 TSUPCCLKHMX    0               0            
    THDCLKMN    0               0            
    THDCLKTY    6.000000E-09    6.000000E-09 
    THDCLKMX    6.000000E-09    6.000000E-09 
  TSUCECLKMN    0               0            
  TSUCECLKTY    0               0            
  TSUCECLKMX    0               0            
   THCECLKMN    0               0            
   THCECLKTY    0               0            
   THCECLKMX    0               0            


**** 04/01/20 15:48:06 ******* PSpice Lite (March 2016) ******* ID# 10813 ****

 ** Profile: "SCHEMATIC1-orcad2"  [ C:\Users\OHSEHOON\Desktop\pispice\orcad2-PSpiceFiles\SCHEMATIC1\orcad2.sim ] 


 ****     Digital IO  MODEL PARAMETERS


******************************************************************************




               IO_STM          IO_STD_ST       IO_STD          IO_STD_OC       
        DRVL    0             104             104             104            
        DRVH    0              96.4            96.4             1.000000E+06 
       AtoD1                 AtoD_STD_ST     AtoD_STD        AtoD_STD        
       AtoD2                 AtoD_STD_ST     AtoD_STD_NX     AtoD_STD_NX     
       AtoD3                 AtoD_STD_ST     AtoD_STD        AtoD_STD        
       AtoD4                 AtoD_STD_ST     AtoD_STD_NX     AtoD_STD_NX     
       DtoA1 DtoA_STM        DtoA_STD        DtoA_STD        DtoA_STD_OC     
       DtoA2 DtoA_STM        DtoA_STD        DtoA_STD        DtoA_STD_OC     
       DtoA3 DtoA_STM        DtoA_STD        DtoA_STD        DtoA_STD_OC     
       DtoA4 DtoA_STM        DtoA_STD        DtoA_STD        DtoA_STD_OC     
      TSWHL1                    1.511000E-09    1.511000E-09    2.747000E-09 
      TSWHL2                    1.487000E-09    1.487000E-09    2.732000E-09 
      TSWHL3                    1.511000E-09    1.511000E-09    2.747000E-09 
      TSWHL4                    1.487000E-09    1.487000E-09    2.732000E-09 
      TSWLH1                    3.517000E-09    3.517000E-09    1.589000E-09 
      TSWLH2                    3.564000E-09    3.564000E-09    1.615000E-09 
      TSWLH3                    3.517000E-09    3.517000E-09    1.589000E-09 
      TSWLH4                    3.564000E-09    3.564000E-09    1.615000E-09 
       TPWRT  100.000000E+03  100.000000E+03  100.000000E+03  100.000000E+03 


**** 04/01/20 15:48:06 ******* PSpice Lite (March 2016) ******* ID# 10813 ****

 ** Profile: "SCHEMATIC1-orcad2"  [ C:\Users\OHSEHOON\Desktop\pispice\orcad2-PSpiceFiles\SCHEMATIC1\orcad2.sim ] 


 ****     INITIAL TRANSIENT SOLUTION       TEMPERATURE =   27.000 DEG C


******************************************************************************



 NODE   VOLTAGE     NODE   VOLTAGE     NODE   VOLTAGE     NODE   VOLTAGE


(N00424)     .1236 (N00453)    2.9670 (N00469)     .0971 ($G_DGND)    0.0000    

($G_DPWR)    5.0000                   (X$N00424_AtoD1.1)     .2151              

(X$N00424_AtoD1.2)     .1075          (X$N00424_AtoD1.3)     .9490              

(X$N00453_AtoD1.1)    1.5648          (X$N00453_AtoD1.2)     .7824              

(X$N00453_AtoD1.3)    2.2862          (X$N00469_AtoD1.1)     .1886              

(X$N00469_AtoD1.2)     .0943          (X$N00469_AtoD1.3)     .9230          



 DGTL NODE : STATE  DGTL NODE : STATE  DGTL NODE : STATE  DGTL NODE : STATE


(X_U2A.YB) : 1     (N00469$DtoA) : 0  (X_U2A.K_BUF) : 1  (N00453$AtoD) : 1      

(N00424$AtoD) : 0  (X_U2A.W1) : 1     ( X_U2A.Y) : 0     (X_U2A.QBAR_BUFD) : 1  

(  OUTPUT) : 0     (   $D_HI) : 1     (X_U2A.CLKBAR) : 1                        

(X_U2A.CLK_BUF) : 0                   (RESET_BAR) : 0    (N00453$DtoA) : 1      

(N00424$DtoA) : 0  (X_U2A.JB) : 0     (X_U2A.W2) : 0     (X_U2A.QBAR_BUF) : 1   

(X_U2A.KB) : 0     (X_U2A.J_BUF) : 1  (X_U2A.QBUFD) : 0  (N00469$AtoD) : 0      

(X_U2A.CLRBAR_BUF) : 0                (OUTPUT_BAR) : 1   (   RESET) : 1         

(X_U2A.QBUF) : 0   




    VOLTAGE SOURCE CURRENTS
    NAME         CURRENT

    X$DIGIFPWR.VDPWR  -3.802E-02
    X$DIGIFPWR.VDGND  -5.000E-06

    TOTAL POWER DISSIPATION   1.90E-01  WATTS



          JOB CONCLUDED

**** 04/01/20 15:48:06 ******* PSpice Lite (March 2016) ******* ID# 10813 ****

 ** Profile: "SCHEMATIC1-orcad2"  [ C:\Users\OHSEHOON\Desktop\pispice\orcad2-PSpiceFiles\SCHEMATIC1\orcad2.sim ] 


 ****     JOB STATISTICS SUMMARY


******************************************************************************



  Total job time (using Solver 1)   =         .38
