
**** 06/03/20 14:56:53 ******* PSpice Lite (March 2016) ******* ID# 10813 ****

 ** Profile: "SCHEMATIC1-orcad12week1"  [ C:\Users\OHSEHOON\Desktop\pispice\orcad12week1-PSpiceFiles\SCHEMATIC1\orcad12week1.sim ] 


 ****     CIRCUIT DESCRIPTION


******************************************************************************




** Creating circuit file "orcad12week1.cir" 
** WARNING: THIS AUTOMATICALLY GENERATED FILE MAY BE OVERWRITTEN BY SUBSEQUENT SIMULATIONS

*Libraries: 
* Profile Libraries :
* Local Libraries :
* From [PSPICE NETLIST] section of C:\Users\OHSEHOON\AppData\Roaming\SPB_Data\cdssetup\OrCAD_PSpice\17.2.0\PSpice.ini file:
.lib "nomd.lib" 

*Analysis directives: 
.TRAN  0 10m 0 
.OPTIONS ADVCONV
.PROBE64 V(alias(*)) I(alias(*)) W(alias(*)) D(alias(*)) NOISE(alias(*)) 
.INC "..\SCHEMATIC1.net" 



**** INCLUDING SCHEMATIC1.net ****
* source ORCAD12WEEK1
V_V1         N00233 0  
+SIN 0 10m 1k 0 0 0
C_C1         N00233 N00214  1n  TC=0,0 
R_R1         N00214 N00180  390k TC=0,0 
R_R2         N00221 N00180  1k TC=0,0 
Q_Q1         N00221 N00214 0 Q2N2222
V_V2         N00180 0 20

**** RESUMING orcad12week1.cir ****
.END

**** 06/03/20 14:56:53 ******* PSpice Lite (March 2016) ******* ID# 10813 ****

 ** Profile: "SCHEMATIC1-orcad12week1"  [ C:\Users\OHSEHOON\Desktop\pispice\orcad12week1-PSpiceFiles\SCHEMATIC1\orcad12week1.sim ] 


 ****     BJT MODEL PARAMETERS


******************************************************************************




               Q2N2222         
               NPN             
       LEVEL    1            
          IS   14.340000E-15 
          BF  255.9          
          NF    1            
         VAF   74.03         
         IKF     .2847       
         ISE   14.340000E-15 
          NE    1.307        
          BR    6.092        
          NR    1            
         ISS    0            
          RB   10            
          RE    0            
          RC    1            
         CJE   22.010000E-12 
         VJE     .75         
         MJE     .377        
         CJC    7.306000E-12 
         VJC     .75         
         MJC     .3416       
        XCJC    1            
         CJS    0            
         VJS     .75         
          TF  411.100000E-12 
         XTF    3            
         VTF    1.7          
         ITF     .6          
          TR   46.910000E-09 
         XTB    1.5          
          KF    0            
          AF    1            
          CN    2.42         
           D     .87         


**** 06/03/20 14:56:53 ******* PSpice Lite (March 2016) ******* ID# 10813 ****

 ** Profile: "SCHEMATIC1-orcad12week1"  [ C:\Users\OHSEHOON\Desktop\pispice\orcad12week1-PSpiceFiles\SCHEMATIC1\orcad12week1.sim ] 


 ****     INITIAL TRANSIENT SOLUTION       TEMPERATURE =   27.000 DEG C


******************************************************************************



 NODE   VOLTAGE     NODE   VOLTAGE     NODE   VOLTAGE     NODE   VOLTAGE


(N00180)   20.0000 (N00214)     .7026 (N00221)   10.3250 (N00233)    0.0000 




    VOLTAGE SOURCE CURRENTS
    NAME         CURRENT

    V_V1         0.000E+00
    V_V2        -9.725E-03

    TOTAL POWER DISSIPATION   1.94E-01  WATTS



          JOB CONCLUDED

**** 06/03/20 14:56:53 ******* PSpice Lite (March 2016) ******* ID# 10813 ****

 ** Profile: "SCHEMATIC1-orcad12week1"  [ C:\Users\OHSEHOON\Desktop\pispice\orcad12week1-PSpiceFiles\SCHEMATIC1\orcad12week1.sim ] 


 ****     JOB STATISTICS SUMMARY


******************************************************************************



  Total job time (using Solver 1)   =         .08
