
**** 09/25/19 22:28:19 ******* PSpice Lite (March 2016) ******* ID# 10813 ****

 ** Profile: "SCHEMATIC1-test_11"  [ C:\Users\OHSEHOON\Desktop\test_11-PSpiceFiles\SCHEMATIC1\test_11.sim ] 


 ****     CIRCUIT DESCRIPTION


******************************************************************************




** Creating circuit file "test_11.cir" 
** WARNING: THIS AUTOMATICALLY GENERATED FILE MAY BE OVERWRITTEN BY SUBSEQUENT SIMULATIONS

*Libraries: 
* Profile Libraries :
* Local Libraries :
* From [PSPICE NETLIST] section of C:\Users\OHSEHOON\AppData\Roaming\SPB_Data\cdssetup\OrCAD_PSpice\17.2.0\PSpice.ini file:
.lib "nomd.lib" 

*Analysis directives: 
.TRAN  0 1 0 
.OPTIONS ADVCONV
.PROBE64 V(alias(*)) I(alias(*)) W(alias(*)) D(alias(*)) NOISE(alias(*)) 
.INC "..\SCHEMATIC1.net" 



**** INCLUDING SCHEMATIC1.net ****
* source TEST_11
V_V1         N00297 0 5Vdc
R_R4         N00297 N00328  1k TC=0,0 
R_R2         0 N00328  666 TC=0,0 
R_R1         0 N00324  100 TC=0,0 
R_R3         N00324 N00297  150 TC=0,0 

**** RESUMING test_11.cir ****
.END

**** 09/25/19 22:28:19 ******* PSpice Lite (March 2016) ******* ID# 10813 ****

 ** Profile: "SCHEMATIC1-test_11"  [ C:\Users\OHSEHOON\Desktop\test_11-PSpiceFiles\SCHEMATIC1\test_11.sim ] 


 ****     INITIAL TRANSIENT SOLUTION       TEMPERATURE =   27.000 DEG C


******************************************************************************



 NODE   VOLTAGE     NODE   VOLTAGE     NODE   VOLTAGE     NODE   VOLTAGE


(N00297)    5.0000 (N00324)    2.0000 (N00328)    1.9988 




    VOLTAGE SOURCE CURRENTS
    NAME         CURRENT

    V_V1        -2.300E-02

    TOTAL POWER DISSIPATION   1.15E-01  WATTS



          JOB CONCLUDED

**** 09/25/19 22:28:19 ******* PSpice Lite (March 2016) ******* ID# 10813 ****

 ** Profile: "SCHEMATIC1-test_11"  [ C:\Users\OHSEHOON\Desktop\test_11-PSpiceFiles\SCHEMATIC1\test_11.sim ] 


 ****     JOB STATISTICS SUMMARY


******************************************************************************



  Total job time (using Solver 1)   =         .02
