
**** 04/20/20 23:53:38 ******* PSpice Lite (March 2016) ******* ID# 10813 ****

 ** Profile: "SCHEMATIC1-orcad6week3"  [ c:\users\ohsehoon\desktop\pispice\orcad6week3-pspicefiles\schematic1\orcad6week3.sim ] 


 ****     CIRCUIT DESCRIPTION


******************************************************************************




** Creating circuit file "orcad6week3.cir" 
** WARNING: THIS AUTOMATICALLY GENERATED FILE MAY BE OVERWRITTEN BY SUBSEQUENT SIMULATIONS

*Libraries: 
* Profile Libraries :
* Local Libraries :
* From [PSPICE NETLIST] section of C:\Users\OHSEHOON\AppData\Roaming\SPB_Data\cdssetup\OrCAD_PSpice\17.2.0\PSpice.ini file:
.lib "nomd.lib" 

*Analysis directives: 
.AC LIN 101 10 100k
.NOISE V(R_R4) V_V1 
.OPTIONS ADVCONV
.PROBE64 V(alias(*)) I(alias(*)) W(alias(*)) D(alias(*)) NOISE(alias(*)) 
.INC "..\SCHEMATIC1.net" 



**** INCLUDING SCHEMATIC1.net ****
* source ORCAD6WEEK3
V_V1         N00211 0 DC 1V AC 0 
X_U1         N00218 N00618 V+ V- N00180 uA741
R_R1         N00211 N00218  10k TC=0,0 
R_R2         0 N00618  10k TC=0,0 
R_R3         N00218 N00180  100k TC=0,0 
R_R4         0 N00180  1k TC=0,0 
V_V2         V+ 0 15
V_V3         V- 0 -15

**** RESUMING orcad6week3.cir ****
.END

**** 04/20/20 23:53:38 ******* PSpice Lite (March 2016) ******* ID# 10813 ****

 ** Profile: "SCHEMATIC1-orcad6week3"  [ c:\users\ohsehoon\desktop\pispice\orcad6week3-pspicefiles\schematic1\orcad6week3.sim ] 


 ****     Diode MODEL PARAMETERS


******************************************************************************




               X_U1.dx         X_U1.dy         
          IS  800.000000E-18  800.000000E-18 
          RS    1               1.000000E-03 
         CJO                   10.000000E-12 


**** 04/20/20 23:53:38 ******* PSpice Lite (March 2016) ******* ID# 10813 ****

 ** Profile: "SCHEMATIC1-orcad6week3"  [ c:\users\ohsehoon\desktop\pispice\orcad6week3-pspicefiles\schematic1\orcad6week3.sim ] 


 ****     BJT MODEL PARAMETERS


******************************************************************************




               X_U1.qx         
               NPN             
       LEVEL    1            
          IS  800.000000E-18 
          BF   93.75         
          NF    1            
          BR    1            
          NR    1            
         ISS    0            
          RE    0            
          RC    0            
         CJE    0            
         VJE     .75         
         CJC    0            
         VJC     .75         
         MJC     .33         
        XCJC    1            
         CJS    0            
         VJS     .75         
          KF    0            
          AF    1            
          CN    2.42         
           D     .87         


**** 04/20/20 23:53:38 ******* PSpice Lite (March 2016) ******* ID# 10813 ****

 ** Profile: "SCHEMATIC1-orcad6week3"  [ c:\users\ohsehoon\desktop\pispice\orcad6week3-pspicefiles\schematic1\orcad6week3.sim ] 


 ****     SMALL SIGNAL BIAS SOLUTION       TEMPERATURE =   27.000 DEG C


******************************************************************************



 NODE   VOLTAGE     NODE   VOLTAGE     NODE   VOLTAGE     NODE   VOLTAGE


(   V+)   15.0000  (   V-)  -15.0000  (N00180)  -10.0020 (N00211)    1.0000     

(N00218)-875.3E-06 (N00618)-798.2E-06 (X_U1.6)     .0011 (X_U1.7)  -10.5070     

(X_U1.8)  -10.5070 (X_U1.9)    0.0000 (X_U1.10)    -.6085                       

(X_U1.11)   14.9600                   (X_U1.12)   14.9600                       

(X_U1.13)    -.5946                   (X_U1.14)    -.5946                       

(X_U1.53)   14.0000                   (X_U1.54)  -14.0000                       

(X_U1.90)  -10.1020                   (X_U1.91)   40.0000                       

(X_U1.92)  -40.0000                   (X_U1.99)    0.0000                   




    VOLTAGE SOURCE CURRENTS
    NAME         CURRENT

    V_V1        -1.001E-04
    V_V2        -1.667E-03
    V_V3         1.667E-03
    X_U1.vb      1.087E-08
    X_U1.vc      2.400E-11
    X_U1.ve      5.915E-12
    X_U1.vlim   -1.010E-02
    X_U1.vlp    -5.010E-11
    X_U1.vln    -2.990E-11

    TOTAL POWER DISSIPATION   5.01E-02  WATTS



          JOB CONCLUDED

**** 04/20/20 23:53:38 ******* PSpice Lite (March 2016) ******* ID# 10813 ****

 ** Profile: "SCHEMATIC1-orcad6week3"  [ c:\users\ohsehoon\desktop\pispice\orcad6week3-pspicefiles\schematic1\orcad6week3.sim ] 


 ****     JOB STATISTICS SUMMARY


******************************************************************************



  Total job time (using Solver 1)   =         .08
