
**** 04/29/20 11:46:13 ******* PSpice Lite (March 2016) ******* ID# 10813 ****

 ** Profile: "SCHEMATIC1-orcad7week2"  [ C:\Users\OHSEHOON\Desktop\pispice\orcad7week2-PSpiceFiles\SCHEMATIC1\orcad7week2.sim ] 


 ****     CIRCUIT DESCRIPTION


******************************************************************************




** Creating circuit file "orcad7week2.cir" 
** WARNING: THIS AUTOMATICALLY GENERATED FILE MAY BE OVERWRITTEN BY SUBSEQUENT SIMULATIONS

*Libraries: 
* Profile Libraries :
* Local Libraries :
.LIB "../../../orcad7week2-pspicefiles/orcad7week2.lib" 
* From [PSPICE NETLIST] section of C:\Users\OHSEHOON\AppData\Roaming\SPB_Data\cdssetup\OrCAD_PSpice\17.2.0\PSpice.ini file:
.lib "nomd.lib" 

*Analysis directives: 
.TRAN  0 30m 0 
.OPTIONS ADVCONV
.PROBE64 V(alias(*)) I(alias(*)) W(alias(*)) D(alias(*)) NOISE(alias(*)) 
.INC "..\SCHEMATIC1.net" 



**** INCLUDING SCHEMATIC1.net ****
* source ORCAD7WEEK2
V_V1         N00210 0  
+PULSE 0 30 2777.8u 1u 1u 100u 16666.7u
V_V2         N00191 0  AC 0
+SIN 0 170V 60Hz 0 0 0
X_X1         N00218 N00214 0 2N1595
R_R1         N00218 N00191  2.5 TC=0,0 
R_R2         N00210 N00214  300 TC=0,0 

**** RESUMING orcad7week2.cir ****
.END

INFO(ORPSIM-15423): Unable to find index file orcad7week2.ind for library file orcad7week2.lib.

INFO(ORPSIM-15422): Making new index file orcad7week2.ind for library file orcad7week2.lib.

Index has 1 entries from 1 file(s).

**** 04/29/20 11:46:13 ******* PSpice Lite (March 2016) ******* ID# 10813 ****

 ** Profile: "SCHEMATIC1-orcad7week2"  [ C:\Users\OHSEHOON\Desktop\pispice\orcad7week2-PSpiceFiles\SCHEMATIC1\orcad7week2.sim ] 


 ****     Diode MODEL PARAMETERS


******************************************************************************




               X_X1.X1.Dgk     X_X1.X1.Dseries X_X1.X1.Delay   X_X1.X1.Dkarev  
          IS  100.000000E-18   10.000000E-15    1.000000E-12  100.000000E-12 
          RS    5                                .01             .01         
         CJO   50.000000E-12                    5.000000E-12    5.000000E-12 


               X_X1.X1.Dakfwd  X_X1.X1.Dbreak  
          IS   40.000000E-12   10.000000E-15 
          BV                    1.320000E+03 
         IBV                  100.000000E-09 
          RS                     .5          
         CJO    5.000000E-12    5.000000E-12 


**** 04/29/20 11:46:13 ******* PSpice Lite (March 2016) ******* ID# 10813 ****

 ** Profile: "SCHEMATIC1-orcad7week2"  [ C:\Users\OHSEHOON\Desktop\pispice\orcad7week2-PSpiceFiles\SCHEMATIC1\orcad7week2.sim ] 


 ****     Voltage Controlled Switch MODEL PARAMETERS


******************************************************************************




               X_X1.X1.Vswitch 
         RON     .4          
        ROFF  454.545500E+03 
         VON    5            
        VOFF    1.5          


**** 04/29/20 11:46:13 ******* PSpice Lite (March 2016) ******* ID# 10813 ****

 ** Profile: "SCHEMATIC1-orcad7week2"  [ C:\Users\OHSEHOON\Desktop\pispice\orcad7week2-PSpiceFiles\SCHEMATIC1\orcad7week2.sim ] 


 ****     INITIAL TRANSIENT SOLUTION       TEMPERATURE =   27.000 DEG C


******************************************************************************



 NODE   VOLTAGE     NODE   VOLTAGE     NODE   VOLTAGE     NODE   VOLTAGE


(N00191)    0.0000 (N00210)    0.0000 (N00214)    0.0000 (N00218)    0.0000     

(X_X1.X1.Itot)    0.0000              (X_X1.X1.prod)    0.0000                  

(X_X1.X1.dlay1) 107.9E-27             (X_X1.X1.dlay2)-476.8E-27                 

(X_X1.X1.dvdt0)    0.0000             (X_X1.X1.dvdt1)    0.0000                 

(X_X1.X1.dvdt2)    0.0000             (X_X1.X1.gate1)    0.0000                 

(X_X1.X1.gate2)    0.0000             (X_X1.X1.gate4)    0.0000                 

(X_X1.X1.anode0)    0.0000            (X_X1.X1.anode2)    0.0000                

(X_X1.X1.break1)-122.5E-18            (X_X1.X1.contot)    0.0000                

(X_X1.X1.condvdt)    0.0000           (X_X1.X1.congate)    0.0000               

(X_X1.X1.conmain)    0.0000           (X_X1.X1.control) 808.4E-21           




    VOLTAGE SOURCE CURRENTS
    NAME         CURRENT

    V_V1         0.000E+00
    V_V2         0.000E+00
    X_X1.X1.VIak   0.000E+00
    X_X1.X1.VdVdt   0.000E+00
    X_X1.X1.VIgf   0.000E+00

    TOTAL POWER DISSIPATION   0.00E+00  WATTS



          JOB CONCLUDED

**** 04/29/20 11:46:13 ******* PSpice Lite (March 2016) ******* ID# 10813 ****

 ** Profile: "SCHEMATIC1-orcad7week2"  [ C:\Users\OHSEHOON\Desktop\pispice\orcad7week2-PSpiceFiles\SCHEMATIC1\orcad7week2.sim ] 


 ****     JOB STATISTICS SUMMARY


******************************************************************************



  Total job time (using Solver 1)   =        1.92
