
**** 06/16/20 11:05:04 ******* PSpice Lite (March 2016) ******* ID# 10813 ****

 ** Profile: "SCHEMATIC1-orcad14week1"  [ C:\Users\OHSEHOON\Desktop\pispice\orcad14week1-PSpiceFiles\SCHEMATIC1\orcad14week1.sim ] 


 ****     CIRCUIT DESCRIPTION


******************************************************************************




** Creating circuit file "orcad14week1.cir" 
** WARNING: THIS AUTOMATICALLY GENERATED FILE MAY BE OVERWRITTEN BY SUBSEQUENT SIMULATIONS

*Libraries: 
* Profile Libraries :
* Local Libraries :
* From [PSPICE NETLIST] section of C:\Users\OHSEHOON\AppData\Roaming\SPB_Data\cdssetup\OrCAD_PSpice\17.2.0\PSpice.ini file:
.lib "nomd.lib" 

*Analysis directives: 
.TRAN  0 5m 0 
.OPTIONS ADVCONV
.PROBE64 V(alias(*)) I(alias(*)) W(alias(*)) D(alias(*)) NOISE(alias(*)) 
.INC "..\SCHEMATIC1.net" 



**** INCLUDING SCHEMATIC1.net ****
* source ORCAD14WEEK1
R_R1         N00149 N00142  1k TC=0,0 
R_R2         0 N00142  2k TC=0,0 
R_R3         0 N00142  4k TC=0,0 
V_V1         N00149 0 10V

**** RESUMING orcad14week1.cir ****
.END

**** 06/16/20 11:05:04 ******* PSpice Lite (March 2016) ******* ID# 10813 ****

 ** Profile: "SCHEMATIC1-orcad14week1"  [ C:\Users\OHSEHOON\Desktop\pispice\orcad14week1-PSpiceFiles\SCHEMATIC1\orcad14week1.sim ] 


 ****     INITIAL TRANSIENT SOLUTION       TEMPERATURE =   27.000 DEG C


******************************************************************************



 NODE   VOLTAGE     NODE   VOLTAGE     NODE   VOLTAGE     NODE   VOLTAGE


(N00142)    5.7143 (N00149)   10.0000 




    VOLTAGE SOURCE CURRENTS
    NAME         CURRENT

    V_V1        -4.286E-03

    TOTAL POWER DISSIPATION   4.29E-02  WATTS



          JOB CONCLUDED

**** 06/16/20 11:05:04 ******* PSpice Lite (March 2016) ******* ID# 10813 ****

 ** Profile: "SCHEMATIC1-orcad14week1"  [ C:\Users\OHSEHOON\Desktop\pispice\orcad14week1-PSpiceFiles\SCHEMATIC1\orcad14week1.sim ] 


 ****     JOB STATISTICS SUMMARY


******************************************************************************



  Total job time (using Solver 1)   =         .02
