
**** 06/16/20 15:45:42 ******* PSpice Lite (March 2016) ******* ID# 10813 ****

 ** Profile: "SCHEMATIC1-orcad14week11"  [ C:\Users\OHSEHOON\Desktop\pispice\orcad14week12-PSpiceFiles\SCHEMATIC1\orcad14week11.sim ]


 ****     CIRCUIT DESCRIPTION


******************************************************************************




** Creating circuit file "orcad14week11.cir" 
** WARNING: THIS AUTOMATICALLY GENERATED FILE MAY BE OVERWRITTEN BY SUBSEQUENT SIMULATIONS

*Libraries: 
* Profile Libraries :
* Local Libraries :
* From [PSPICE NETLIST] section of C:\Users\OHSEHOON\AppData\Roaming\SPB_Data\cdssetup\OrCAD_PSpice\17.2.0\PSpice.ini file:
.lib "nomd.lib" 

*Analysis directives: 
.TRAN  0 1m 0 
.STEP PARAM rval LIST 5k, 11k 
.OPTIONS ADVCONV
.PROBE64 V(alias(*)) I(alias(*)) W(alias(*)) D(alias(*)) NOISE(alias(*)) 
.INC "..\SCHEMATIC1.net" 



**** INCLUDING SCHEMATIC1.net ****
* source ORCAD14WEEK12
X_U1A         N02526 N02411 V+ V- N02471 LM324
V_V2         V+ 0 5
V_V3         V- 0 -5
R_R4         N02526 0  {rval} TC=0,0 
R_R6         N02411 N00214  18k TC=0,0 
R_R7         N02411 N02471  18k TC=0,0 
C_C1         N02526 N00214  1.8n  TC=0,0 
V_V4         N00214 0  
+SIN 0 1 5k 0 0 0
.PARAM  rval=11k

**** RESUMING orcad14week11.cir ****
.END

**** 06/16/20 15:45:42 ******* PSpice Lite (March 2016) ******* ID# 10813 ****

 ** Profile: "SCHEMATIC1-orcad14week11"  [ C:\Users\OHSEHOON\Desktop\pispice\orcad14week12-PSpiceFiles\SCHEMATIC1\orcad14week11.sim ]


 ****     Diode MODEL PARAMETERS


******************************************************************************




               X_U1A.dx        X_U1A.dy        
          IS  800.000000E-18  800.000000E-18 
          RS    1               1.000000E-03 
         CJO                   10.000000E-12 


**** 06/16/20 15:45:42 ******* PSpice Lite (March 2016) ******* ID# 10813 ****

 ** Profile: "SCHEMATIC1-orcad14week11"  [ C:\Users\OHSEHOON\Desktop\pispice\orcad14week12-PSpiceFiles\SCHEMATIC1\orcad14week11.sim ]


 ****     BJT MODEL PARAMETERS


******************************************************************************




               X_U1A.qx        
               PNP             
       LEVEL    1            
          IS  800.000000E-18 
          BF  166.7          
          NF    1            
          BR    1            
          NR    1            
         ISS    0            
          RE    0            
          RC    0            
         CJE    0            
         VJE     .75         
         CJC    0            
         VJC     .75         
         MJC     .33         
        XCJC    1            
         CJS    0            
         VJS     .75         
          KF    0            
          AF    1            
          CN    2.2          
           D     .52         


**** 06/16/20 15:45:42 ******* PSpice Lite (March 2016) ******* ID# 10813 ****

 ** Profile: "SCHEMATIC1-orcad14week11"  [ C:\Users\OHSEHOON\Desktop\pispice\orcad14week12-PSpiceFiles\SCHEMATIC1\orcad14week11.sim ]


 ****     Current Controlled Switch MODEL PARAMETERS


******************************************************************************




               X_U1A.sw2       X_U1A.sw1       X_U1A.sw3       X_U1A.sw4       
         RON    1               1               1               1            
        ROFF   10.000000E+06   10.000000E+06   10.000000E+06   10.000000E+06 
         ION    0              -1.000000E-06   -1.000000E-06    0            
        IOFF   -1.000000E-06    0               0              -1.000000E-06 


**** 06/16/20 15:45:42 ******* PSpice Lite (March 2016) ******* ID# 10813 ****

 ** Profile: "SCHEMATIC1-orcad14week11"  [ C:\Users\OHSEHOON\Desktop\pispice\orcad14week12-PSpiceFiles\SCHEMATIC1\orcad14week11.sim ]


 ****     INITIAL TRANSIENT SOLUTION       TEMPERATURE =   27.000 DEG C

 ****     CURRENT STEP                     PARAM RVAL =    5.0000E+03


******************************************************************************



 NODE   VOLTAGE     NODE   VOLTAGE     NODE   VOLTAGE     NODE   VOLTAGE


(   V+)    5.0000  (   V-)   -5.0000  (N00214)    0.0000 (N02411) 31.14E-06     

(N02471)-747.0E-06 (N02526) 223.7E-06 (X_U1A.6) 141.1E-09                       

(X_U1A.7)-749.1E-06                   (X_U1A.8)-749.1E-06                       

(X_U1A.9)    0.0000                   (X_U1A.a)    5.0000                       

(X_U1A.b)-548.7E-09                   (X_U1A.10)     .6078                      

(X_U1A.11)   -4.9602                  (X_U1A.12)   -4.9604                      

(X_U1A.13)     .5939                  (X_U1A.14)     .5940                      

(X_U1A.53)    3.5000                  (X_U1A.54)   -4.1780                      

(X_U1A.90)-43.23E-06                  (X_U1A.91)   40.0000                      

(X_U1A.92)  -40.0000                  (X_U1A.99)    0.0000                  




    VOLTAGE SOURCE CURRENTS
    NAME         CURRENT

    V_V2        -1.117E-03
    V_V3         1.117E-03
    V_V4         1.730E-09
    X_U1A.vb     1.411E-12
    X_U1A.vc     3.502E-12
    X_U1A.ve     4.750E-12
    X_U1A.vlim  -4.323E-08
    X_U1A.vlp   -4.000E-11
    X_U1A.vln   -4.000E-11

    TOTAL POWER DISSIPATION   1.12E-02  WATTS


**** 06/16/20 15:45:42 ******* PSpice Lite (March 2016) ******* ID# 10813 ****

 ** Profile: "SCHEMATIC1-orcad14week11"  [ C:\Users\OHSEHOON\Desktop\pispice\orcad14week12-PSpiceFiles\SCHEMATIC1\orcad14week11.sim ]


 ****     INITIAL TRANSIENT SOLUTION       TEMPERATURE =   27.000 DEG C

 ****     CURRENT STEP                     PARAM RVAL =   11.0000E+03


******************************************************************************



 NODE   VOLTAGE     NODE   VOLTAGE     NODE   VOLTAGE     NODE   VOLTAGE


(   V+)    5.0000  (   V-)   -5.0000  (N00214)    0.0000 (N02411) 299.5E-06     

(N02471)-210.3E-06 (N02526) 492.1E-06 (X_U1A.6) 39.70E-09                       

(X_U1A.7)-211.7E-06                   (X_U1A.8)-211.7E-06                       

(X_U1A.9)    0.0000                   (X_U1A.a)    5.0000                       

(X_U1A.b)-510.1E-09                   (X_U1A.10)     .6081                      

(X_U1A.11)   -4.9602                  (X_U1A.12)   -4.9604                      

(X_U1A.13)     .5942                  (X_U1A.14)     .5942                      

(X_U1A.53)    3.5000                  (X_U1A.54)   -4.1780                      

(X_U1A.90)-28.32E-06                  (X_U1A.91)   40.0000                      

(X_U1A.92)  -40.0000                  (X_U1A.99)    0.0000                  




    VOLTAGE SOURCE CURRENTS
    NAME         CURRENT

    V_V2        -1.117E-03
    V_V3         1.117E-03
    V_V4         1.664E-08
    X_U1A.vb     3.970E-13
    X_U1A.vc     3.501E-12
    X_U1A.ve     4.750E-12
    X_U1A.vlim  -2.832E-08
    X_U1A.vlp   -4.000E-11
    X_U1A.vln   -4.000E-11

    TOTAL POWER DISSIPATION   1.12E-02  WATTS



          JOB CONCLUDED

**** 06/16/20 15:45:42 ******* PSpice Lite (March 2016) ******* ID# 10813 ****

 ** Profile: "SCHEMATIC1-orcad14week11"  [ C:\Users\OHSEHOON\Desktop\pispice\orcad14week12-PSpiceFiles\SCHEMATIC1\orcad14week11.sim ]


 ****     JOB STATISTICS SUMMARY

 ****     CURRENT STEP                     PARAM RVAL =   11.0000E+03


******************************************************************************



  Total job time (using Solver 1)   =         .14
