
**** 09/26/19 12:03:16 ******* PSpice Lite (March 2016) ******* ID# 10813 ****

 ** Profile: "SCHEMATIC1-v_i_nanugi"  [ C:\Users\OHSEHOON\Desktop\v_i_nanugi-PSpiceFiles\SCHEMATIC1\v_i_nanugi.sim ] 


 ****     CIRCUIT DESCRIPTION


******************************************************************************




** Creating circuit file "v_i_nanugi.cir" 
** WARNING: THIS AUTOMATICALLY GENERATED FILE MAY BE OVERWRITTEN BY SUBSEQUENT SIMULATIONS

*Libraries: 
* Profile Libraries :
* Local Libraries :
* From [PSPICE NETLIST] section of C:\Users\OHSEHOON\AppData\Roaming\SPB_Data\cdssetup\OrCAD_PSpice\17.2.0\PSpice.ini file:
.lib "nomd.lib" 

*Analysis directives: 
.TRAN  0 1 0 
.OPTIONS ADVCONV
.PROBE64 V(alias(*)) I(alias(*)) W(alias(*)) D(alias(*)) NOISE(alias(*)) 
.INC "..\SCHEMATIC1.net" 



**** INCLUDING SCHEMATIC1.net ****
* source V_I_NANUGI
R_R1         N00092 N00083  1k TC=0,0 
R_R2         0 N00083  6k TC=0,0 
V_V1         N00092 0 7V

**** RESUMING v_i_nanugi.cir ****
.END

**** 09/26/19 12:03:16 ******* PSpice Lite (March 2016) ******* ID# 10813 ****

 ** Profile: "SCHEMATIC1-v_i_nanugi"  [ C:\Users\OHSEHOON\Desktop\v_i_nanugi-PSpiceFiles\SCHEMATIC1\v_i_nanugi.sim ] 


 ****     INITIAL TRANSIENT SOLUTION       TEMPERATURE =   27.000 DEG C


******************************************************************************



 NODE   VOLTAGE     NODE   VOLTAGE     NODE   VOLTAGE     NODE   VOLTAGE


(N00083)    6.0000 (N00092)    7.0000 




    VOLTAGE SOURCE CURRENTS
    NAME         CURRENT

    V_V1        -1.000E-03

    TOTAL POWER DISSIPATION   7.00E-03  WATTS



          JOB CONCLUDED

**** 09/26/19 12:03:16 ******* PSpice Lite (March 2016) ******* ID# 10813 ****

 ** Profile: "SCHEMATIC1-v_i_nanugi"  [ C:\Users\OHSEHOON\Desktop\v_i_nanugi-PSpiceFiles\SCHEMATIC1\v_i_nanugi.sim ] 


 ****     JOB STATISTICS SUMMARY


******************************************************************************



  Total job time (using Solver 1)   =         .02
